date Sun May 24 13:00:00 PM 2026
base hex  timestamps absolute
internal events logged
// version 11.0.0
Begin Triggerblock Sun May 24 13:00:00 PM 2026
   0.000000 Start of measurement
    0.000000 1  300             Rx   d 8 90 22 00 00 00 00 00 00
    0.000000 1  200             Rx   d 8 54 17 00 00 00 00 00 00
    0.009948 1  300             Rx   d 8 70 22 00 00 00 00 00 00
    0.020060 1  300             Rx   d 8 81 22 00 00 00 00 00 00
    0.020115 1  200             Rx   d 8 55 17 00 00 00 00 00 00
    0.030080 1  300             Rx   d 8 38 22 00 00 00 00 00 00
    0.040275 1  300             Rx   d 8 73 22 00 00 00 00 00 00
    0.040318 1  200             Rx   d 8 8C 17 00 00 00 00 00 00
    0.050226 1  300             Rx   d 8 74 22 00 00 00 00 00 00
    0.060311 1  200             Rx   d 8 5E 17 00 00 00 00 00 00
    0.060411 1  300             Rx   d 8 61 22 00 00 00 00 00 00
    0.070432 1  300             Rx   d 8 74 22 00 00 00 00 00 00
    0.080290 1  200             Rx   d 8 55 17 00 00 00 00 00 00
    0.080577 1  300             Rx   d 8 44 22 00 00 00 00 00 00
    0.090513 1  300             Rx   d 8 5D 22 00 00 00 00 00 00
    0.100424 1  300             Rx   d 8 89 22 00 00 00 00 00 00
    0.100522 1  200             Rx   d 8 72 17 00 00 00 00 00 00
    0.110274 1  300             Rx   d 8 45 22 00 00 00 00 00 00
    0.120167 1  300             Rx   d 8 64 22 00 00 00 00 00 00
    0.120304 1  200             Rx   d 8 66 17 00 00 00 00 00 00
    0.130192 1  300             Rx   d 8 47 22 00 00 00 00 00 00
    0.140065 1  300             Rx   d 8 42 22 00 00 00 00 00 00
    0.140320 1  200             Rx   d 8 53 17 00 00 00 00 00 00
    0.150062 1  300             Rx   d 8 40 22 00 00 00 00 00 00
    0.159990 1  300             Rx   d 8 77 22 00 00 00 00 00 00
    0.160603 1  200             Rx   d 8 79 17 00 00 00 00 00 00
    0.170084 1  300             Rx   d 8 6A 22 00 00 00 00 00 00
    0.180208 1  300             Rx   d 8 72 22 00 00 00 00 00 00
    0.180581 1  200             Rx   d 8 78 17 00 00 00 00 00 00
    0.190258 1  300             Rx   d 8 68 22 00 00 00 00 00 00
    0.200330 1  300             Rx   d 8 43 22 00 00 00 00 00 00
    0.200771 1  200             Rx   d 8 5E 17 00 00 00 00 00 00
    0.210306 1  300             Rx   d 8 69 22 00 00 00 00 00 00
    0.220247 1  300             Rx   d 8 5E 22 00 00 00 00 00 00
    0.220953 1  200             Rx   d 8 5C 17 00 00 00 00 00 00
    0.230129 1  300             Rx   d 8 4B 22 00 00 00 00 00 00
    0.240268 1  300             Rx   d 8 52 22 00 00 00 00 00 00
    0.240889 1  200             Rx   d 8 82 17 00 00 00 00 00 00
    0.250206 1  300             Rx   d 8 47 22 00 00 00 00 00 00
    0.260175 1  300             Rx   d 8 4D 22 00 00 00 00 00 00
    0.260627 1  200             Rx   d 8 6B 17 00 00 00 00 00 00
    0.270046 1  300             Rx   d 8 88 22 00 00 00 00 00 00
    0.279962 1  300             Rx   d 8 44 22 00 00 00 00 00 00
    0.280710 1  200             Rx   d 8 81 17 00 00 00 00 00 00
    0.290009 1  300             Rx   d 8 7F 22 00 00 00 00 00 00
    0.299962 1  300             Rx   d 8 6C 22 00 00 00 00 00 00
    0.300945 1  200             Rx   d 8 5E 17 00 00 00 00 00 00
    0.310133 1  300             Rx   d 8 5D 22 00 00 00 00 00 00
    0.320080 1  300             Rx   d 8 7B 22 00 00 00 00 00 00
    0.321105 1  200             Rx   d 8 59 17 00 00 00 00 00 00
    0.330225 1  300             Rx   d 8 6C 22 00 00 00 00 00 00
    0.340350 1  300             Rx   d 8 3A 22 00 00 00 00 00 00
    0.340816 1  200             Rx   d 8 63 17 00 00 00 00 00 00
    0.350540 1  300             Rx   d 8 3B 22 00 00 00 00 00 00
    0.360549 1  300             Rx   d 8 82 22 00 00 00 00 00 00
    0.360599 1  200             Rx   d 8 7F 17 00 00 00 00 00 00
    0.370428 1  300             Rx   d 8 31 22 00 00 00 00 00 00
    0.380351 1  300             Rx   d 8 3C 22 00 00 00 00 00 00
    0.380892 1  200             Rx   d 8 54 17 00 00 00 00 00 00
    0.390290 1  300             Rx   d 8 3A 22 00 00 00 00 00 00
    0.400244 1  300             Rx   d 8 67 22 00 00 00 00 00 00
    0.401156 1  200             Rx   d 8 82 17 00 00 00 00 00 00
    0.410432 1  300             Rx   d 8 58 22 00 00 00 00 00 00
    0.420455 1  300             Rx   d 8 50 22 00 00 00 00 00 00
    0.421293 1  200             Rx   d 8 8E 17 00 00 00 00 00 00
    0.430563 1  300             Rx   d 8 89 22 00 00 00 00 00 00
    0.440504 1  300             Rx   d 8 8F 22 00 00 00 00 00 00
    0.441501 1  200             Rx   d 8 79 17 00 00 00 00 00 00
    0.450359 1  300             Rx   d 8 3A 22 00 00 00 00 00 00
    0.460238 1  300             Rx   d 8 8D 22 00 00 00 00 00 00
    0.461655 1  200             Rx   d 8 8A 17 00 00 00 00 00 00
    0.470118 1  300             Rx   d 8 42 22 00 00 00 00 00 00
    0.480122 1  300             Rx   d 8 4C 22 00 00 00 00 00 00
    0.481515 1  200             Rx   d 8 87 17 00 00 00 00 00 00
    0.490314 1  300             Rx   d 8 80 22 00 00 00 00 00 00
    0.501262 1  200             Rx   d 8 6D 17 00 00 00 00 00 00
    0.521126 1  200             Rx   d 8 77 17 00 00 00 00 00 00
    0.541314 1  200             Rx   d 8 76 17 00 00 00 00 00 00
    0.561188 1  200             Rx   d 8 6C 17 00 00 00 00 00 00
    0.581404 1  200             Rx   d 8 85 17 00 00 00 00 00 00
    0.601517 1  200             Rx   d 8 82 17 00 00 00 00 00 00
    0.621508 1  200             Rx   d 8 69 17 00 00 00 00 00 00
    0.641410 1  200             Rx   d 8 75 17 00 00 00 00 00 00
    0.661405 1  200             Rx   d 8 55 17 00 00 00 00 00 00
    0.681323 1  200             Rx   d 8 64 17 00 00 00 00 00 00
    0.701460 1  200             Rx   d 8 72 17 00 00 00 00 00 00
    0.721557 1  200             Rx   d 8 70 17 00 00 00 00 00 00
    0.741654 1  200             Rx   d 8 7D 17 00 00 00 00 00 00
    0.761618 1  200             Rx   d 8 63 17 00 00 00 00 00 00
    0.781454 1  200             Rx   d 8 86 17 00 00 00 00 00 00
    0.789656 1  300             Rx   d 8 5F 22 00 00 00 00 00 00
    0.799640 1  300             Rx   d 8 83 22 00 00 00 00 00 00
    0.801558 1  200             Rx   d 8 8B 17 00 00 00 00 00 00
    0.809753 1  300             Rx   d 8 6A 22 00 00 00 00 00 00
    0.819777 1  300             Rx   d 8 5B 22 00 00 00 00 00 00
    0.821287 1  200             Rx   d 8 8B 17 00 00 00 00 00 00
    0.829756 1  300             Rx   d 8 7C 22 00 00 00 00 00 00
    0.839916 1  300             Rx   d 8 3F 22 00 00 00 00 00 00
    0.841451 1  200             Rx   d 8 6D 17 00 00 00 00 00 00
    0.850021 1  300             Rx   d 8 58 22 00 00 00 00 00 00
    0.859884 1  300             Rx   d 8 38 22 00 00 00 00 00 00
    0.861471 1  200             Rx   d 8 7E 17 00 00 00 00 00 00
    0.869769 1  300             Rx   d 8 3B 22 00 00 00 00 00 00
    0.879615 1  300             Rx   d 8 6E 22 00 00 00 00 00 00
    0.881447 1  200             Rx   d 8 6E 17 00 00 00 00 00 00
    0.889730 1  300             Rx   d 8 73 22 00 00 00 00 00 00
    0.899792 1  300             Rx   d 8 48 22 00 00 00 00 00 00
    0.901158 1  200             Rx   d 8 8B 17 00 00 00 00 00 00
    0.909977 1  300             Rx   d 8 91 22 00 00 00 00 00 00
    0.920061 1  300             Rx   d 8 7E 22 00 00 00 00 00 00
    0.921162 1  200             Rx   d 8 6D 17 00 00 00 00 00 00
    0.929868 1  300             Rx   d 8 5A 22 00 00 00 00 00 00
    0.940029 1  300             Rx   d 8 31 22 00 00 00 00 00 00
    0.941301 1  200             Rx   d 8 56 17 00 00 00 00 00 00
    0.950182 1  300             Rx   d 8 7F 22 00 00 00 00 00 00
    0.960136 1  300             Rx   d 8 7E 22 00 00 00 00 00 00
    0.961458 1  200             Rx   d 8 7E 17 00 00 00 00 00 00
    0.970249 1  300             Rx   d 8 87 22 00 00 00 00 00 00
    0.980252 1  300             Rx   d 8 44 22 00 00 00 00 00 00
    0.981410 1  200             Rx   d 8 6A 17 00 00 00 00 00 00
    0.990352 1  300             Rx   d 8 53 22 00 00 00 00 00 00
    1.001656 1  200             Rx   d 8 7C 17 00 00 00 00 00 00
    1.021396 1  200             Rx   d 8 59 17 00 00 00 00 00 00
    1.041671 1  200             Rx   d 8 55 17 00 00 00 00 00 00
    1.061965 1  200             Rx   d 8 6E 17 00 00 00 00 00 00
    1.082261 1  200             Rx   d 8 57 17 00 00 00 00 00 00
    1.102151 1  200             Rx   d 8 6E 17 00 00 00 00 00 00
    1.122215 1  200             Rx   d 8 57 17 00 00 00 00 00 00
    1.142223 1  200             Rx   d 8 69 17 00 00 00 00 00 00
    1.162434 1  200             Rx   d 8 5A 17 00 00 00 00 00 00
    1.182195 1  200             Rx   d 8 62 17 00 00 00 00 00 00
    1.202424 1  200             Rx   d 8 65 17 00 00 00 00 00 00
    1.222250 1  200             Rx   d 8 5B 17 00 00 00 00 00 00
    1.242141 1  200             Rx   d 8 86 17 00 00 00 00 00 00
    1.262244 1  200             Rx   d 8 71 17 00 00 00 00 00 00
    1.282107 1  200             Rx   d 8 88 17 00 00 00 00 00 00
    1.302310 1  200             Rx   d 8 68 17 00 00 00 00 00 00
    1.321052 1  300             Rx   d 8 7D 22 00 00 00 00 00 00
    1.322299 1  200             Rx   d 8 78 17 00 00 00 00 00 00
    1.331225 1  300             Rx   d 8 82 22 00 00 00 00 00 00
    1.341399 1  300             Rx   d 8 61 22 00 00 00 00 00 00
    1.342146 1  200             Rx   d 8 5B 17 00 00 00 00 00 00
    1.351415 1  300             Rx   d 8 6A 22 00 00 00 00 00 00
    1.361417 1  300             Rx   d 8 87 22 00 00 00 00 00 00
    1.362411 1  200             Rx   d 8 68 17 00 00 00 00 00 00
    1.371414 1  300             Rx   d 8 2E 22 00 00 00 00 00 00
    1.381577 1  300             Rx   d 8 68 22 00 00 00 00 00 00
    1.382167 1  200             Rx   d 8 5A 17 00 00 00 00 00 00
    1.391453 1  300             Rx   d 8 7A 22 00 00 00 00 00 00
    1.401293 1  300             Rx   d 8 70 22 00 00 00 00 00 00
    1.401992 1  200             Rx   d 8 7B 17 00 00 00 00 00 00
    1.411487 1  300             Rx   d 8 68 22 00 00 00 00 00 00
    1.421575 1  300             Rx   d 8 52 22 00 00 00 00 00 00
    1.422019 1  200             Rx   d 8 74 17 00 00 00 00 00 00
    1.431660 1  300             Rx   d 8 31 22 00 00 00 00 00 00
    1.441849 1  300             Rx   d 8 64 22 00 00 00 00 00 00
    1.442279 1  200             Rx   d 8 7E 17 00 00 00 00 00 00
    1.451956 1  300             Rx   d 8 7D 22 00 00 00 00 00 00
    1.462086 1  200             Rx   d 8 68 17 00 00 00 00 00 00
    1.462114 1  300             Rx   d 8 6F 22 00 00 00 00 00 00
    1.472246 1  300             Rx   d 8 59 22 00 00 00 00 00 00
    1.481839 1  200             Rx   d 8 68 17 00 00 00 00 00 00
    1.501987 1  200             Rx   d 8 89 17 00 00 00 00 00 00
    1.521970 1  200             Rx   d 8 72 17 00 00 00 00 00 00
    1.542116 1  200             Rx   d 8 82 17 00 00 00 00 00 00
    1.561988 1  200             Rx   d 8 7E 17 00 00 00 00 00 00
    1.582222 1  200             Rx   d 8 79 17 00 00 00 00 00 00
    1.602072 1  200             Rx   d 8 7A 17 00 00 00 00 00 00
    1.622093 1  200             Rx   d 8 88 17 00 00 00 00 00 00
    1.642043 1  200             Rx   d 8 6A 17 00 00 00 00 00 00
    1.662253 1  200             Rx   d 8 6A 17 00 00 00 00 00 00
    1.682134 1  200             Rx   d 8 68 17 00 00 00 00 00 00
    1.702385 1  200             Rx   d 8 55 17 00 00 00 00 00 00
    1.722298 1  200             Rx   d 8 75 17 00 00 00 00 00 00
    1.732357 1  300             Rx   d 8 91 22 00 00 00 00 00 00
    1.742222 1  300             Rx   d 8 7E 22 00 00 00 00 00 00
    1.742246 1  200             Rx   d 8 55 17 00 00 00 00 00 00
    1.752081 1  300             Rx   d 8 54 22 00 00 00 00 00 00
    1.761928 1  300             Rx   d 8 3F 22 00 00 00 00 00 00
    1.762250 1  200             Rx   d 8 8D 17 00 00 00 00 00 00
    1.771841 1  300             Rx   d 8 39 22 00 00 00 00 00 00
    1.781644 1  300             Rx   d 8 5B 22 00 00 00 00 00 00
    1.782049 1  200             Rx   d 8 65 17 00 00 00 00 00 00
    1.791457 1  300             Rx   d 8 3B 22 00 00 00 00 00 00
    1.801326 1  300             Rx   d 8 42 22 00 00 00 00 00 00
    1.802283 1  200             Rx   d 8 77 17 00 00 00 00 00 00
    1.811245 1  300             Rx   d 8 7E 22 00 00 00 00 00 00
    1.821134 1  300             Rx   d 8 67 22 00 00 00 00 00 00
    1.822311 1  200             Rx   d 8 5A 17 00 00 00 00 00 00
    1.831150 1  300             Rx   d 8 58 22 00 00 00 00 00 00
    1.841275 1  300             Rx   d 8 39 22 00 00 00 00 00 00
    1.842061 1  200             Rx   d 8 73 17 00 00 00 00 00 00
    1.851280 1  300             Rx   d 8 4A 22 00 00 00 00 00 00
    1.861176 1  300             Rx   d 8 88 22 00 00 00 00 00 00
    1.861874 1  200             Rx   d 8 53 17 00 00 00 00 00 00
    1.871208 1  300             Rx   d 8 2F 22 00 00 00 00 00 00
    1.881058 1  300             Rx   d 8 70 22 00 00 00 00 00 00
    1.881746 1  200             Rx   d 8 68 17 00 00 00 00 00 00
    1.891053 1  300             Rx   d 8 3A 22 00 00 00 00 00 00
    1.902029 1  200             Rx   d 8 6A 17 00 00 00 00 00 00
    1.922299 1  200             Rx   d 8 6A 17 00 00 00 00 00 00
    1.942195 1  200             Rx   d 8 6E 17 00 00 00 00 00 00
    1.962160 1  200             Rx   d 8 66 17 00 00 00 00 00 00
    1.982139 1  200             Rx   d 8 81 17 00 00 00 00 00 00
    2.001983 1  200             Rx   d 8 71 17 00 00 00 00 00 00
    2.021711 1  200             Rx   d 8 78 17 00 00 00 00 00 00
    2.041974 1  200             Rx   d 8 8D 17 00 00 00 00 00 00
    2.061708 1  200             Rx   d 8 89 17 00 00 00 00 00 00
    2.081587 1  200             Rx   d 8 8A 17 00 00 00 00 00 00
    2.101615 1  200             Rx   d 8 62 17 00 00 00 00 00 00
    2.121823 1  200             Rx   d 8 8D 17 00 00 00 00 00 00
    2.141901 1  200             Rx   d 8 5D 17 00 00 00 00 00 00
    2.161700 1  200             Rx   d 8 7B 17 00 00 00 00 00 00
    2.181797 1  200             Rx   d 8 59 17 00 00 00 00 00 00
    2.201523 1  200             Rx   d 8 61 17 00 00 00 00 00 00
    2.221604 1  200             Rx   d 8 88 17 00 00 00 00 00 00
    2.241365 1  200             Rx   d 8 58 17 00 00 00 00 00 00
    2.261287 1  200             Rx   d 8 65 17 00 00 00 00 00 00
    2.281498 1  200             Rx   d 8 6F 17 00 00 00 00 00 00
    2.281888 1  300             Rx   d 8 63 22 00 00 00 00 00 00
    2.291827 1  300             Rx   d 8 89 22 00 00 00 00 00 00
    2.301376 1  200             Rx   d 8 66 17 00 00 00 00 00 00
    2.301817 1  300             Rx   d 8 7B 22 00 00 00 00 00 00
    2.312009 1  300             Rx   d 8 5D 22 00 00 00 00 00 00
    2.321630 1  200             Rx   d 8 54 17 00 00 00 00 00 00
    2.321878 1  300             Rx   d 8 8C 22 00 00 00 00 00 00
    2.332014 1  300             Rx   d 8 5F 22 00 00 00 00 00 00
    2.341520 1  200             Rx   d 8 5A 17 00 00 00 00 00 00
    2.342005 1  300             Rx   d 8 72 22 00 00 00 00 00 00
    2.351846 1  300             Rx   d 8 3E 22 00 00 00 00 00 00
    2.361357 1  200             Rx   d 8 6D 17 00 00 00 00 00 00
    2.361897 1  300             Rx   d 8 8A 22 00 00 00 00 00 00
    2.371856 1  300             Rx   d 8 52 22 00 00 00 00 00 00
    2.381418 1  200             Rx   d 8 68 17 00 00 00 00 00 00
    2.381854 1  300             Rx   d 8 35 22 00 00 00 00 00 00
    2.391759 1  300             Rx   d 8 5E 22 00 00 00 00 00 00
    2.401294 1  200             Rx   d 8 8A 17 00 00 00 00 00 00
    2.401710 1  300             Rx   d 8 70 22 00 00 00 00 00 00
    2.411670 1  300             Rx   d 8 85 22 00 00 00 00 00 00
    2.421468 1  200             Rx   d 8 53 17 00 00 00 00 00 00
    2.421852 1  300             Rx   d 8 45 22 00 00 00 00 00 00
    2.432001 1  300             Rx   d 8 59 22 00 00 00 00 00 00
    2.441504 1  200             Rx   d 8 73 17 00 00 00 00 00 00
    2.441994 1  300             Rx   d 8 58 22 00 00 00 00 00 00
    2.452013 1  300             Rx   d 8 6C 22 00 00 00 00 00 00
    2.461292 1  200             Rx   d 8 78 17 00 00 00 00 00 00
    2.461951 1  300             Rx   d 8 90 22 00 00 00 00 00 00
    2.471847 1  300             Rx   d 8 6F 22 00 00 00 00 00 00
    2.481317 1  200             Rx   d 8 77 17 00 00 00 00 00 00
    2.481736 1  300             Rx   d 8 36 22 00 00 00 00 00 00
    2.491892 1  300             Rx   d 8 3F 22 00 00 00 00 00 00
    2.501273 1  200             Rx   d 8 5B 17 00 00 00 00 00 00
    2.501994 1  300             Rx   d 8 7D 22 00 00 00 00 00 00
    2.512019 1  300             Rx   d 8 4F 22 00 00 00 00 00 00
    2.521268 1  200             Rx   d 8 78 17 00 00 00 00 00 00
    2.522152 1  300             Rx   d 8 8E 22 00 00 00 00 00 00
    2.532004 1  300             Rx   d 8 86 22 00 00 00 00 00 00
    2.541064 1  200             Rx   d 8 68 17 00 00 00 00 00 00
    2.541859 1  300             Rx   d 8 80 22 00 00 00 00 00 00
    2.551868 1  300             Rx   d 8 37 22 00 00 00 00 00 00
    2.561001 1  200             Rx   d 8 63 17 00 00 00 00 00 00
    2.561972 1  300             Rx   d 8 40 22 00 00 00 00 00 00
    2.571942 1  300             Rx   d 8 59 22 00 00 00 00 00 00
    2.580797 1  200             Rx   d 8 72 17 00 00 00 00 00 00
    2.581793 1  300             Rx   d 8 44 22 00 00 00 00 00 00
    2.591976 1  300             Rx   d 8 8F 22 00 00 00 00 00 00
    2.600599 1  200             Rx   d 8 57 17 00 00 00 00 00 00
    2.601963 1  300             Rx   d 8 5C 22 00 00 00 00 00 00
    2.611774 1  300             Rx   d 8 48 22 00 00 00 00 00 00
    2.620498 1  200             Rx   d 8 8D 17 00 00 00 00 00 00
    2.621943 1  300             Rx   d 8 69 22 00 00 00 00 00 00
    2.631764 1  300             Rx   d 8 77 22 00 00 00 00 00 00
    2.640357 1  200             Rx   d 8 8D 17 00 00 00 00 00 00
    2.641641 1  300             Rx   d 8 65 22 00 00 00 00 00 00
    2.651707 1  300             Rx   d 8 8D 22 00 00 00 00 00 00
    2.660610 1  200             Rx   d 8 6B 17 00 00 00 00 00 00
    2.661878 1  300             Rx   d 8 3B 22 00 00 00 00 00 00
    2.671720 1  300             Rx   d 8 37 22 00 00 00 00 00 00
    2.680451 1  200             Rx   d 8 58 17 00 00 00 00 00 00
    2.681536 1  300             Rx   d 8 30 22 00 00 00 00 00 00
    2.691399 1  300             Rx   d 8 6C 22 00 00 00 00 00 00
End TriggerBlock
