date Sun May 24 14:00:00 PM 2026
base hex  timestamps absolute
internal events logged
// version 11.0.0
Begin Triggerblock Sun May 24 14:00:00 PM 2026
   0.000000 Start of measurement
    0.000000 1  401             Rx   d 8 66 00 00 00 00 00 00 00
    0.019813 1  401             Rx   d 8 8B 00 00 00 00 00 00 00
    0.040300 1  401             Rx   d 8 66 00 00 00 00 00 00 00
    0.059796 1  401             Rx   d 8 6C 00 00 00 00 00 00 00
    0.079282 1  401             Rx   d 8 89 00 00 00 00 00 00 00
    0.099654 1  401             Rx   d 8 87 00 00 00 00 00 00 00
    0.119994 1  401             Rx   d 8 7F 00 00 00 00 00 00 00
    0.140336 1  401             Rx   d 8 7E 00 00 00 00 00 00 00
    0.160640 1  401             Rx   d 8 7E 00 00 00 00 00 00 00
    0.180898 1  401             Rx   d 8 83 00 00 00 00 00 00 00
    0.201383 1  401             Rx   d 8 7F 00 00 00 00 00 00 00
    0.221138 1  401             Rx   d 8 74 00 00 00 00 00 00 00
    0.240797 1  401             Rx   d 8 78 00 00 00 00 00 00 00
    0.260777 1  401             Rx   d 8 6A 03 00 00 00 00 00 00
    0.281272 1  401             Rx   d 8 2A 03 00 00 00 00 00 00
    0.301019 1  401             Rx   d 8 6A 03 00 00 00 00 00 00
    0.321125 1  401             Rx   d 8 61 03 00 00 00 00 00 00
    0.341702 1  401             Rx   d 8 85 00 00 00 00 00 00 00
    0.361231 1  401             Rx   d 8 8B 00 00 00 00 00 00 00
    0.381780 1  401             Rx   d 8 70 00 00 00 00 00 00 00
    0.402324 1  401             Rx   d 8 65 00 00 00 00 00 00 00
    0.422444 1  401             Rx   d 8 66 00 00 00 00 00 00 00
    0.442278 1  401             Rx   d 8 88 00 00 00 00 00 00 00
    0.461992 1  401             Rx   d 8 65 00 00 00 00 00 00 00
    0.481784 1  401             Rx   d 8 6D 00 00 00 00 00 00 00
    0.501560 1  401             Rx   d 8 6A 00 00 00 00 00 00 00
    0.521522 1  401             Rx   d 8 87 00 00 00 00 00 00 00
    0.542099 1  401             Rx   d 8 88 00 00 00 00 00 00 00
    0.562180 1  401             Rx   d 8 3A 03 00 00 00 00 00 00
    0.582545 1  401             Rx   d 8 3F 03 00 00 00 00 00 00
    0.602837 1  401             Rx   d 8 51 03 00 00 00 00 00 00
    0.623049 1  401             Rx   d 8 38 03 00 00 00 00 00 00
    0.642937 1  401             Rx   d 8 52 03 00 00 00 00 00 00
    0.662456 1  401             Rx   d 8 64 00 00 00 00 00 00 00
    0.682524 1  401             Rx   d 8 6C 00 00 00 00 00 00 00
    0.702791 1  401             Rx   d 8 8A 00 00 00 00 00 00 00
    0.722374 1  401             Rx   d 8 8B 00 00 00 00 00 00 00
    0.742321 1  401             Rx   d 8 7C 00 00 00 00 00 00 00
    0.761753 1  401             Rx   d 8 74 00 00 00 00 00 00 00
    0.781703 1  401             Rx   d 8 81 00 00 00 00 00 00 00
    0.801827 1  401             Rx   d 8 8C 00 00 00 00 00 00 00
    0.821424 1  401             Rx   d 8 86 00 00 00 00 00 00 00
    0.841576 1  401             Rx   d 8 82 00 00 00 00 00 00 00
    0.861035 1  401             Rx   d 8 3D 03 00 00 00 00 00 00
    0.881510 1  401             Rx   d 8 59 03 00 00 00 00 00 00
    0.901233 1  401             Rx   d 8 3D 03 00 00 00 00 00 00
    0.921164 1  401             Rx   d 8 36 03 00 00 00 00 00 00
    0.941660 1  401             Rx   d 8 6E 00 00 00 00 00 00 00
    0.961432 1  401             Rx   d 8 77 00 00 00 00 00 00 00
    0.981816 1  401             Rx   d 8 8B 00 00 00 00 00 00 00
    1.001854 1  401             Rx   d 8 80 00 00 00 00 00 00 00
    1.021339 1  401             Rx   d 8 66 00 00 00 00 00 00 00
    1.041841 1  401             Rx   d 8 7D 00 00 00 00 00 00 00
    1.061371 1  401             Rx   d 8 6A 00 00 00 00 00 00 00
    1.080782 1  401             Rx   d 8 7F 00 00 00 00 00 00 00
    1.100606 1  401             Rx   d 8 6E 00 00 00 00 00 00 00
    1.120007 1  401             Rx   d 8 8A 00 00 00 00 00 00 00
    1.139513 1  401             Rx   d 8 69 00 00 00 00 00 00 00
    1.160034 1  401             Rx   d 8 7B 00 00 00 00 00 00 00
    1.180511 1  401             Rx   d 8 2C 03 00 00 00 00 00 00
    1.199919 1  401             Rx   d 8 67 03 00 00 00 00 00 00
    1.220361 1  401             Rx   d 8 5D 03 00 00 00 00 00 00
    1.240323 1  401             Rx   d 8 32 03 00 00 00 00 00 00
    1.259726 1  401             Rx   d 8 69 03 00 00 00 00 00 00
    1.279415 1  401             Rx   d 8 6A 00 00 00 00 00 00 00
    1.299696 1  401             Rx   d 8 70 00 00 00 00 00 00 00
    1.319202 1  401             Rx   d 8 6D 00 00 00 00 00 00 00
    1.339472 1  401             Rx   d 8 8A 00 00 00 00 00 00 00
    1.359787 1  401             Rx   d 8 87 00 00 00 00 00 00 00
    1.379952 1  401             Rx   d 8 7A 00 00 00 00 00 00 00
    1.399551 1  401             Rx   d 8 8B 00 00 00 00 00 00 00
    1.419255 1  401             Rx   d 8 76 00 00 00 00 00 00 00
    1.439182 1  401             Rx   d 8 89 00 00 00 00 00 00 00
    1.459709 1  401             Rx   d 8 6F 00 00 00 00 00 00 00
    1.479680 1  401             Rx   d 8 5C 03 00 00 00 00 00 00
    1.499577 1  401             Rx   d 8 66 03 00 00 00 00 00 00
    1.520017 1  401             Rx   d 8 57 03 00 00 00 00 00 00
    1.540601 1  401             Rx   d 8 3B 03 00 00 00 00 00 00
    1.560504 1  401             Rx   d 8 7D 00 00 00 00 00 00 00
    1.580205 1  401             Rx   d 8 66 00 00 00 00 00 00 00
    1.599789 1  401             Rx   d 8 79 00 00 00 00 00 00 00
    1.619987 1  401             Rx   d 8 7A 00 00 00 00 00 00 00
    1.640145 1  401             Rx   d 8 89 00 00 00 00 00 00 00
    1.659841 1  401             Rx   d 8 7D 00 00 00 00 00 00 00
    1.679305 1  401             Rx   d 8 77 00 00 00 00 00 00 00
    1.698859 1  401             Rx   d 8 6D 00 00 00 00 00 00 00
    1.718285 1  401             Rx   d 8 82 00 00 00 00 00 00 00
    1.738557 1  401             Rx   d 8 74 00 00 00 00 00 00 00
    1.758600 1  401             Rx   d 8 82 00 00 00 00 00 00 00
    1.778445 1  401             Rx   d 8 70 00 00 00 00 00 00 00
    1.798865 1  401             Rx   d 8 75 03 00 00 00 00 00 00
    1.819077 1  401             Rx   d 8 3F 03 00 00 00 00 00 00
    1.839654 1  401             Rx   d 8 4B 03 00 00 00 00 00 00
    1.859527 1  401             Rx   d 8 3F 03 00 00 00 00 00 00
    1.879700 1  401             Rx   d 8 69 00 00 00 00 00 00 00
    1.899837 1  401             Rx   d 8 7B 00 00 00 00 00 00 00
    1.919833 1  401             Rx   d 8 8B 00 00 00 00 00 00 00
    1.940274 1  401             Rx   d 8 88 00 00 00 00 00 00 00
    1.960362 1  401             Rx   d 8 73 00 00 00 00 00 00 00
    1.980518 1  401             Rx   d 8 69 00 00 00 00 00 00 00
    2.000563 1  401             Rx   d 8 73 00 00 00 00 00 00 00
    2.020757 1  401             Rx   d 8 81 00 00 00 00 00 00 00
    2.040216 1  401             Rx   d 8 88 00 00 00 00 00 00 00
    2.060114 1  401             Rx   d 8 8B 00 00 00 00 00 00 00
    2.079594 1  401             Rx   d 8 8B 00 00 00 00 00 00 00
    2.099126 1  401             Rx   d 8 55 03 00 00 00 00 00 00
    2.119636 1  401             Rx   d 8 38 03 00 00 00 00 00 00
    2.139354 1  401             Rx   d 8 2F 03 00 00 00 00 00 00
    2.158774 1  401             Rx   d 8 87 00 00 00 00 00 00 00
    2.178189 1  401             Rx   d 8 6F 00 00 00 00 00 00 00
    2.197843 1  401             Rx   d 8 7A 00 00 00 00 00 00 00
    2.218396 1  401             Rx   d 8 81 00 00 00 00 00 00 00
    2.238555 1  401             Rx   d 8 70 00 00 00 00 00 00 00
    2.258617 1  401             Rx   d 8 8A 00 00 00 00 00 00 00
    2.278863 1  401             Rx   d 8 7B 00 00 00 00 00 00 00
    2.298572 1  401             Rx   d 8 6E 00 00 00 00 00 00 00
    2.318784 1  401             Rx   d 8 76 00 00 00 00 00 00 00
    2.338813 1  401             Rx   d 8 77 00 00 00 00 00 00 00
    2.358267 1  401             Rx   d 8 6D 00 00 00 00 00 00 00
    2.378311 1  401             Rx   d 8 78 00 00 00 00 00 00 00
    2.397929 1  401             Rx   d 8 73 03 00 00 00 00 00 00
    2.417395 1  401             Rx   d 8 35 03 00 00 00 00 00 00
    2.437427 1  401             Rx   d 8 48 03 00 00 00 00 00 00
    2.457312 1  401             Rx   d 8 42 03 00 00 00 00 00 00
    2.477226 1  401             Rx   d 8 70 00 00 00 00 00 00 00
    2.497497 1  401             Rx   d 8 71 00 00 00 00 00 00 00
    2.517982 1  401             Rx   d 8 84 00 00 00 00 00 00 00
    2.537465 1  401             Rx   d 8 6C 00 00 00 00 00 00 00
    2.557796 1  401             Rx   d 8 64 00 00 00 00 00 00 00
    2.578047 1  401             Rx   d 8 81 00 00 00 00 00 00 00
    2.597503 1  401             Rx   d 8 67 00 00 00 00 00 00 00
    2.617167 1  401             Rx   d 8 7E 00 00 00 00 00 00 00
    2.637067 1  401             Rx   d 8 69 00 00 00 00 00 00 00
    2.656956 1  401             Rx   d 8 85 00 00 00 00 00 00 00
    2.677139 1  401             Rx   d 8 82 00 00 00 00 00 00 00
    2.697636 1  401             Rx   d 8 73 00 00 00 00 00 00 00
End TriggerBlock
