date Sun May 24 12:00:00 PM 2026
base hex  timestamps absolute
internal events logged
// version 11.0.0
Begin Triggerblock Sun May 24 12:00:00 PM 2026
   0.000000 Start of measurement
    0.010232 1  100             Rx   d 8 60 0C 00 00 00 00 00 00
    0.020204 1  100             Rx   d 8 64 0C 00 00 00 00 00 00
    0.029925 1  100             Rx   d 8 62 0C 00 00 00 00 00 00
    0.039996 1  100             Rx   d 8 74 0C 00 00 00 00 00 00
    0.049971 1  100             Rx   d 8 A7 0C 00 00 00 00 00 00
    0.060017 1  100             Rx   d 8 78 0C 00 00 00 00 00 00
    0.070154 1  100             Rx   d 8 7C 0C 00 00 00 00 00 00
    0.080355 1  100             Rx   d 8 82 0C 00 00 00 00 00 00
    0.090547 1  100             Rx   d 8 75 0C 00 00 00 00 00 00
    0.100813 1  100             Rx   d 8 8A 0C 00 00 00 00 00 00
    0.111054 1  100             Rx   d 8 68 0C 00 00 00 00 00 00
    0.121149 1  100             Rx   d 8 94 0C 00 00 00 00 00 00
    0.131018 1  100             Rx   d 8 9B 0C 00 00 00 00 00 00
    0.140857 1  100             Rx   d 8 9B 0C 00 00 00 00 00 00
    0.150965 1  100             Rx   d 8 5C 0C 00 00 00 00 00 00
    0.161143 1  100             Rx   d 8 81 0C 00 00 00 00 00 00
    0.171316 1  100             Rx   d 8 61 0C 00 00 00 00 00 00
    0.181039 1  100             Rx   d 8 65 0C 00 00 00 00 00 00
    0.191181 1  100             Rx   d 8 A4 0C 00 00 00 00 00 00
    0.200976 1  100             Rx   d 8 7C 0C 00 00 00 00 00 00
    0.211036 1  100             Rx   d 8 78 0C 00 00 00 00 00 00
    0.221094 1  100             Rx   d 8 8F 0C 00 00 00 00 00 00
    0.231484 1  100             Rx   d 8 68 0C 00 00 00 00 00 00
    0.241697 1  100             Rx   d 8 9B 0C 00 00 00 00 00 00
    0.251535 1  100             Rx   d 8 95 0C 00 00 00 00 00 00
    0.261601 1  100             Rx   d 8 89 0C 00 00 00 00 00 00
    0.271625 1  100             Rx   d 8 8E 0C 00 00 00 00 00 00
    0.281258 1  100             Rx   d 8 A4 0C 00 00 00 00 00 00
    0.291512 1  100             Rx   d 8 77 0C 00 00 00 00 00 00
    0.301898 1  100             Rx   d 8 7D 0C 00 00 00 00 00 00
    0.312148 1  100             Rx   d 8 A4 0C 00 00 00 00 00 00
    0.322016 1  100             Rx   d 8 8A 0C 00 00 00 00 00 00
    0.332023 1  100             Rx   d 8 6E 0C 00 00 00 00 00 00
    0.341980 1  100             Rx   d 8 5F 0C 00 00 00 00 00 00
    0.352162 1  100             Rx   d 8 9E 0C 00 00 00 00 00 00
    0.361914 1  100             Rx   d 8 90 0C 00 00 00 00 00 00
    0.371694 1  100             Rx   d 8 8A 0C 00 00 00 00 00 00
    0.381763 1  100             Rx   d 8 A1 0C 00 00 00 00 00 00
    0.391416 1  100             Rx   d 8 64 0C 00 00 00 00 00 00
    0.401205 1  100             Rx   d 8 A0 0C 00 00 00 00 00 00
    0.411332 1  100             Rx   d 8 A0 0C 00 00 00 00 00 00
    0.421032 1  100             Rx   d 8 95 0C 00 00 00 00 00 00
    0.430742 1  100             Rx   d 8 88 0C 00 00 00 00 00 00
    0.440393 1  100             Rx   d 8 89 0C 00 00 00 00 00 00
    0.450101 1  100             Rx   d 8 7A 0C 00 00 00 00 00 00
    0.460320 1  100             Rx   d 8 6F 0C 00 00 00 00 00 00
    0.470319 1  100             Rx   d 8 73 0C 00 00 00 00 00 00
    0.480452 1  100             Rx   d 8 8D 0C 00 00 00 00 00 00
    0.490182 1  100             Rx   d 8 5F 0C 00 00 00 00 00 00
    0.499830 1  100             Rx   d 8 A7 0C 00 00 00 00 00 00
    0.510079 1  100             Rx   d 8 C0 00 00 00 00 00 00 00
    0.520176 1  100             Rx   d 8 ED 00 00 00 00 00 00 00
    0.530313 1  100             Rx   d 8 D6 00 00 00 00 00 00 00
    0.540254 1  100             Rx   d 8 89 0C 00 00 00 00 00 00
    0.550335 1  100             Rx   d 8 7E 0C 00 00 00 00 00 00
    0.560412 1  100             Rx   d 8 A3 0C 00 00 00 00 00 00
    0.570237 1  100             Rx   d 8 95 0C 00 00 00 00 00 00
    0.580268 1  100             Rx   d 8 88 01 00 00 00 00 00 00
    0.590029 1  100             Rx   d 8 65 01 00 00 00 00 00 00
    0.600302 1  100             Rx   d 8 84 01 00 00 00 00 00 00
    0.610447 1  100             Rx   d 8 9F 0C 00 00 00 00 00 00
    0.620476 1  100             Rx   d 8 98 0C 00 00 00 00 00 00
    0.630329 1  100             Rx   d 8 98 0C 00 00 00 00 00 00
    0.640240 1  100             Rx   d 8 30 01 00 00 00 00 00 00
    0.649951 1  100             Rx   d 8 10 01 00 00 00 00 00 00
    0.660177 1  100             Rx   d 8 20 01 00 00 00 00 00 00
    0.670223 1  100             Rx   d 8 5D 0C 00 00 00 00 00 00
    0.679853 1  100             Rx   d 8 83 0C 00 00 00 00 00 00
    0.689774 1  100             Rx   d 8 97 0C 00 00 00 00 00 00
    0.699539 1  100             Rx   d 8 6D 0C 00 00 00 00 00 00
    0.709809 1  100             Rx   d 8 8D 0C 00 00 00 00 00 00
    0.719635 1  100             Rx   d 8 0C 02 00 00 00 00 00 00
    0.729237 1  100             Rx   d 8 17 02 00 00 00 00 00 00
    0.738956 1  100             Rx   d 8 26 02 00 00 00 00 00 00
    0.748608 1  100             Rx   d 8 5F 0C 00 00 00 00 00 00
    0.758389 1  100             Rx   d 8 A0 0C 00 00 00 00 00 00
    0.768077 1  100             Rx   d 8 8D 0C 00 00 00 00 00 00
    0.778042 1  100             Rx   d 8 A7 0C 00 00 00 00 00 00
    0.788093 1  100             Rx   d 8 84 0C 00 00 00 00 00 00
    0.798196 1  100             Rx   d 8 7B 0C 00 00 00 00 00 00
    0.807869 1  100             Rx   d 8 94 0C 00 00 00 00 00 00
    0.818139 1  100             Rx   d 8 64 0C 00 00 00 00 00 00
    0.827767 1  100             Rx   d 8 A3 0C 00 00 00 00 00 00
    0.837810 1  100             Rx   d 8 93 0C 00 00 00 00 00 00
    0.847831 1  100             Rx   d 8 A4 0C 00 00 00 00 00 00
    0.857651 1  100             Rx   d 8 9D 0C 00 00 00 00 00 00
    0.867421 1  100             Rx   d 8 97 0C 00 00 00 00 00 00
    0.877578 1  100             Rx   d 8 92 0C 00 00 00 00 00 00
    0.887364 1  100             Rx   d 8 A0 0C 00 00 00 00 00 00
    0.897706 1  100             Rx   d 8 86 0C 00 00 00 00 00 00
    0.907969 1  100             Rx   d 8 89 0C 00 00 00 00 00 00
    0.918360 1  100             Rx   d 8 9B 0C 00 00 00 00 00 00
    0.928292 1  100             Rx   d 8 A3 0C 00 00 00 00 00 00
    0.937932 1  100             Rx   d 8 7B 0C 00 00 00 00 00 00
End TriggerBlock
